T3204 000:006.101   SEGGER J-Link V8.64 Log File
T3204 000:006.191   DLL Compiled: Aug 28 2025 09:59:31
T3204 000:006.194   Logging started @ 2025-09-01 06:36
T3204 000:006.198   Process: F:\Keil5\UV4\UV4.exe
T3204 000:006.204 - 6.201ms 
T3204 000:006.211 JLINK_SetWarnOutHandler(...)
T3204 000:006.214 - 0.004ms 
T3204 000:006.219 JLINK_OpenEx(...)
T3204 000:013.005   Firmware: J-Link V9 compiled May  7 2021 16:26:12
T3204 000:014.701   Firmware: J-Link V9 compiled May  7 2021 16:26:12
T3204 000:014.835   Decompressing FW timestamp took 114 us
T3204 000:025.067   Hardware: V9.40
T3204 000:025.077   S/N: 69404747
T3204 000:025.082   OEM: SEGGER
T3204 000:025.087   Feature(s): RDI, GDB, FlashDL, FlashBP, JFlash
T3204 000:026.567   Bootloader: (FW returned invalid version)
T3204 000:030.806   TELNET listener socket opened on port 19021
T3204 000:030.946   WEBSRV WEBSRV_Init(): Starting webserver thread(s)
T3204 000:031.004   WEBSRV Failed to put socket into listener state (port 19080)
T3204 000:031.067   WEBSRV Webserver running on local port 19081
T3204 000:031.246   Looking for J-Link GUI Server exe at: F:\Keil5\ARM\Segger\JLinkGUIServer.exe
T3204 000:031.348   Looking for J-Link GUI Server exe at: D:\SEGGER\JLink_V864\JLinkGUIServer.exe
T3204 000:031.392   Forking J-Link GUI Server: D:\SEGGER\JLink_V864\JLinkGUIServer.exe
T3204 000:035.634   J-Link GUI Server info: "J-Link GUI server V8.64 "
T3204 000:035.921 - 29.688ms returns "O.K."
T3204 000:035.977 JLINK_GetEmuCaps()
T3204 000:035.984 - 0.005ms returns 0xB9FF7BBF
T3204 000:035.990 JLINK_TIF_GetAvailable(...)
T3204 000:036.536 - 0.545ms 
T3204 000:036.602 JLINK_SetErrorOutHandler(...)
T3204 000:036.607 - 0.005ms 
T3204 000:036.626 JLINK_ExecCommand("ProjectFile = "F:\Keil5\keilProject\FreeRTOS\UserRTOS\Project\RVMDK£¨uv5£©\JLinkSettings.ini"", ...). 
T3204 000:047.306   Ref file found at: F:\Keil5\ARM\Segger\JLinkDevices.ref
T3204 000:047.371   REF file references invalid XML file: D:\SEGGER\JLink_V864\JLinkDevices.xml
T3204 000:048.151 - 11.526ms returns 0x00
T3204 000:048.207 JLINK_ExecCommand("Device = STM32F407ZGTx", ...). 
T3204 000:049.171   Device "STM32F407ZG" selected.
T3204 000:049.526 - 1.312ms returns 0x00
T3204 000:049.536 JLINK_ExecCommand("DisableConnectionTimeout", ...). 
T3204 000:049.545   ERROR: Unknown command
T3204 000:049.550 - 0.009ms returns 0x01
T3204 000:049.556 JLINK_GetHardwareVersion()
T3204 000:049.560 - 0.003ms returns 94000
T3204 000:049.565 JLINK_GetDLLVersion()
T3204 000:049.568 - 0.003ms returns 86400
T3204 000:049.573 JLINK_GetOEMString(...)
T3204 000:049.577 JLINK_GetFirmwareString(...)
T3204 000:049.581 - 0.003ms 
T3204 000:049.597 JLINK_GetDLLVersion()
T3204 000:049.601 - 0.003ms returns 86400
T3204 000:049.605 JLINK_GetCompileDateTime()
T3204 000:049.608 - 0.003ms 
T3204 000:049.615 JLINK_GetFirmwareString(...)
T3204 000:049.619 - 0.003ms 
T3204 000:049.625 JLINK_GetHardwareVersion()
T3204 000:049.629 - 0.003ms returns 94000
T3204 000:049.635 JLINK_GetSN()
T3204 000:049.639 - 0.003ms returns 69404747
T3204 000:049.645 JLINK_GetOEMString(...)
T3204 000:049.655 JLINK_TIF_Select(JLINKARM_TIF_SWD)
T3204 000:052.074 - 2.419ms returns 0x00
T3204 000:052.128 JLINK_HasError()
T3204 000:052.138 JLINK_SetSpeed(5000)
T3204 000:052.555 - 0.416ms 
T3204 000:052.590 JLINK_GetId()
T3204 000:053.103   InitTarget() start
T3204 000:053.109    J-Link Script File: Executing InitTarget()
T3204 000:053.606   SWD selected. Executing JTAG -> SWD switching sequence.
T3204 000:057.375   DAP initialized successfully.
T3204 000:069.908   InitTarget() end - Took 16.7ms
T3204 000:071.230   Found SW-DP with ID 0x2BA01477
T3204 000:075.720   DPIDR: 0x2BA01477
T3204 000:075.754   CoreSight SoC-400 or earlier
T3204 000:075.763   Scanning AP map to find all available APs
T3204 000:077.181   AP[1]: Stopped AP scan as end of AP map has been reached
T3204 000:077.207   AP[0]: AHB-AP (IDR: 0x24770011, ADDR: 0x00000000)
T3204 000:077.216   Iterating through AP map to find AHB-AP to use
T3204 000:078.790   AP[0]: Core found
T3204 000:078.863   AP[0]: AHB-AP ROM base: 0xE00FF000
T3204 000:079.767   CPUID register: 0x410FC241. Implementer code: 0x41 (ARM)
T3204 000:079.780   Found Cortex-M4 r0p1, Little endian.
T3204 000:080.815   -- Max. mem block: 0x0000B420
T3204 000:082.373   CPU_ReadMem(4 bytes @ 0xE000EDF0)
T3204 000:082.995   CPU_ReadMem(4 bytes @ 0xE0002000)
T3204 000:083.741   FPUnit: 6 code (BP) slots and 2 literal slots
T3204 000:083.747   CPU_ReadMem(4 bytes @ 0xE000EDFC)
T3204 000:084.505   CPU_ReadMem(4 bytes @ 0xE0001000)
T3204 000:085.202   CPU_WriteMem(4 bytes @ 0xE0001000)
T3204 000:085.919   CPU_ReadMem(4 bytes @ 0xE000ED88)
T3204 000:086.539   CPU_WriteMem(4 bytes @ 0xE000ED88)
T3204 000:087.152   CPU_ReadMem(4 bytes @ 0xE000ED88)
T3204 000:087.756   CPU_WriteMem(4 bytes @ 0xE000ED88)
T3204 000:088.551   CoreSight components:
T3204 000:088.558   ROMTbl[0] @ E00FF000
T3204 000:088.564   CPU_ReadMem(64 bytes @ 0xE00FF000)
T3204 000:089.627   CPU_ReadMem(32 bytes @ 0xE000EFE0)
T3204 000:090.452   [0][0]: E000E000 CID B105E00D PID 000BB00C SCS-M7
T3204 000:090.458   CPU_ReadMem(32 bytes @ 0xE0001FE0)
T3204 000:091.254   [0][1]: E0001000 CID B105E00D PID 003BB002 DWT
T3204 000:091.260   CPU_ReadMem(32 bytes @ 0xE0002FE0)
T3204 000:092.118   [0][2]: E0002000 CID B105E00D PID 002BB003 FPB
T3204 000:092.126   CPU_ReadMem(32 bytes @ 0xE0000FE0)
T3204 000:092.969   [0][3]: E0000000 CID B105E00D PID 003BB001 ITM
T3204 000:092.980   CPU_ReadMem(32 bytes @ 0xE0040FE0)
T3204 000:093.793   [0][4]: E0040000 CID B105900D PID 000BB9A1 TPIU
T3204 000:093.800   CPU_ReadMem(32 bytes @ 0xE0041FE0)
T3204 000:094.638   [0][5]: E0041000 CID B105900D PID 000BB925 ETM
T3204 000:095.182 - 42.591ms returns 0x2BA01477
T3204 000:095.215 JLINK_GetDLLVersion()
T3204 000:095.219 - 0.004ms returns 86400
T3204 000:095.234 JLINK_CORE_GetFound()
T3204 000:095.238 - 0.004ms returns 0xE0000FF
T3204 000:095.243 JLINK_GetDebugInfo(0x100 = JLINKARM_ROM_TABLE_ADDR_INDEX)
T3204 000:095.247   Value=0xE00FF000
T3204 000:095.252 - 0.009ms returns 0
T3204 000:095.261 JLINK_GetDebugInfo(0x100 = JLINKARM_ROM_TABLE_ADDR_INDEX)
T3204 000:095.264   Value=0xE00FF000
T3204 000:095.269 - 0.008ms returns 0
T3204 000:095.273 JLINK_GetDebugInfo(0x101 = JLINKARM_DEBUG_INFO_ETM_ADDR_INDEX)
T3204 000:095.277   Value=0xE0041000
T3204 000:095.281 - 0.008ms returns 0
T3204 000:095.287 JLINK_ReadMemEx(0xE0041FD0, 0x20 Bytes, Flags = 0x02000004)
T3204 000:095.301   CPU_ReadMem(32 bytes @ 0xE0041FD0)
T3204 000:096.656   Data:  04 00 00 00 00 00 00 00 00 00 00 00 00 00 00 00 ...
T3204 000:096.662 - 1.376ms returns 32 (0x20)
T3204 000:096.691 JLINK_GetDebugInfo(0x102 = JLINKARM_DEBUG_INFO_MTB_ADDR_INDEX)
T3204 000:096.694   Value=0x00000000
T3204 000:096.699 - 0.008ms returns 0
T3204 000:096.703 JLINK_GetDebugInfo(0x103 = JLINKARM_DEBUG_INFO_TPIU_ADDR_INDEX)
T3204 000:096.707   Value=0xE0040000
T3204 000:096.711 - 0.008ms returns 0
T3204 000:096.716 JLINK_GetDebugInfo(0x104 = JLINKARM_DEBUG_INFO_ITM_ADDR_INDEX)
T3204 000:096.719   Value=0xE0000000
T3204 000:096.724 - 0.008ms returns 0
T3204 000:096.728 JLINK_GetDebugInfo(0x105 = JLINKARM_DEBUG_INFO_DWT_ADDR_INDEX)
T3204 000:096.731   Value=0xE0001000
T3204 000:096.736 - 0.008ms returns 0
T3204 000:096.740 JLINK_GetDebugInfo(0x106 = JLINKARM_DEBUG_INFO_FPB_ADDR_INDEX)
T3204 000:096.743   Value=0xE0002000
T3204 000:096.748 - 0.008ms returns 0
T3204 000:096.752 JLINK_GetDebugInfo(0x107 = JLINKARM_DEBUG_INFO_NVIC_ADDR_INDEX)
T3204 000:096.756   Value=0xE000E000
T3204 000:096.760 - 0.008ms returns 0
T3204 000:096.765 JLINK_GetDebugInfo(0x10C = JLINKARM_DEBUG_INFO_DBG_ADDR_INDEX)
T3204 000:096.768   Value=0xE000EDF0
T3204 000:096.772 - 0.008ms returns 0
T3204 000:096.777 JLINK_ReadMemU32(0xE000EF40, 0x1 Items)
T3204 000:096.782   CPU_ReadMem(4 bytes @ 0xE000EF40)
T3204 000:097.418   Data:  21 00 11 10
T3204 000:097.424 - 0.646ms returns 1 (0x1)
T3204 000:097.451 JLINK_ReadMemU32(0xE000EF44, 0x1 Items)
T3204 000:097.456   CPU_ReadMem(4 bytes @ 0xE000EF44)
T3204 000:098.111   Data:  11 00 00 11
T3204 000:098.120 - 0.668ms returns 1 (0x1)
T3204 000:098.147 JLINK_ReadMemU32(0xE000ED00, 0x1 Items)
T3204 000:098.152   CPU_ReadMem(4 bytes @ 0xE000ED00)
T3204 000:098.806   Data:  41 C2 0F 41
T3204 000:098.812   Debug reg: CPUID
T3204 000:098.817 - 0.669ms returns 1 (0x1)
T3204 000:098.846 JLINK_GetDebugInfo(0x10F = JLINKARM_DEBUG_INFO_HAS_CORTEX_M_SECURITY_EXT_INDEX)
T3204 000:098.849   Value=0x00000000
T3204 000:098.854 - 0.008ms returns 0
T3204 000:098.859 JLINK_HasError()
T3204 000:098.864 JLINK_SetResetType(JLINKARM_CM3_RESET_TYPE_NORMAL)
T3204 000:098.868 - 0.004ms returns JLINKARM_CM3_RESET_TYPE_NORMAL
T3204 000:098.872 JLINK_Reset()
T3204 000:098.951   JLINK_GetResetTypeDesc
T3204 000:098.955   - 0.004ms 
T3204 000:098.987   Reset type: NORMAL (https://wiki.segger.com/J-Link_Reset_Strategies)
T3204 000:098.993   CPU is running
T3204 000:098.998   CPU_WriteMem(4 bytes @ 0xE000EDF0)
T3204 000:099.725   CPU is running
T3204 000:099.736   CPU_WriteMem(4 bytes @ 0xE000EDFC)
T3204 000:100.428   Reset: Halt core after reset via DEMCR.VC_CORERESET.
T3204 000:101.499   Reset: Reset device via AIRCR.SYSRESETREQ.
T3204 000:101.507   CPU is running
T3204 000:101.513   CPU_WriteMem(4 bytes @ 0xE000ED0C)
T3204 000:156.357   CPU_ReadMem(4 bytes @ 0xE000EDF0)
T3204 000:157.005   CPU_ReadMem(4 bytes @ 0xE000EDF0)
T3204 000:160.879   CPU_WriteMem(4 bytes @ 0xE000EDFC)
T3204 000:167.649   CPU_ReadMem(4 bytes @ 0xE000EDF0)
T3204 000:171.596   CPU_WriteMem(4 bytes @ 0xE0002000)
T3204 000:172.446   CPU_ReadMem(4 bytes @ 0xE000EDFC)
T3204 000:173.122   CPU_ReadMem(4 bytes @ 0xE0001000)
T3204 000:173.816 - 74.943ms 
T3204 000:173.870 JLINK_HasError()
T3204 000:173.876 JLINK_ReadReg(R15 (PC))
T3204 000:173.901 - 0.024ms returns 0x0800024C
T3204 000:173.905 JLINK_ReadReg(XPSR)
T3204 000:173.909 - 0.003ms returns 0x01000000
T3204 000:173.914 JLINK_Halt()
T3204 000:173.917 - 0.003ms returns 0x00
T3204 000:173.922 JLINK_ReadMemU32(0xE000EDF0, 0x1 Items)
T3204 000:173.944   CPU_ReadMem(4 bytes @ 0xE000EDF0)
T3204 000:175.375   Data:  03 00 03 00
T3204 000:175.401   Debug reg: DHCSR
T3204 000:175.407 - 1.484ms returns 1 (0x1)
T3204 000:175.485 JLINK_WriteU32(0xE000EDF0, 0xA05F0003)
T3204 000:175.493   Debug reg: DHCSR
T3204 000:175.756   CPU_WriteMem(4 bytes @ 0xE000EDF0)
T3204 000:176.586 - 1.110ms returns 0 (0x00000000)
T3204 000:176.659 JLINK_WriteU32(0xE000EDFC, 0x01000000)
T3204 000:176.663   Debug reg: DEMCR
T3204 000:176.672   CPU_WriteMem(4 bytes @ 0xE000EDFC)
T3204 000:177.399 - 0.738ms returns 0 (0x00000000)
T3204 000:177.463 JLINK_GetHWStatus(...)
T3204 000:177.941 - 0.477ms returns 0
T3204 000:177.996 JLINK_GetNumBPUnits(Type = 0xFFFFFF00)
T3204 000:178.001 - 0.004ms returns 0x06
T3204 000:178.005 JLINK_GetNumBPUnits(Type = 0xF0)
T3204 000:178.008 - 0.003ms returns 0x2000
T3204 000:178.012 JLINK_GetNumWPUnits()
T3204 000:178.015 - 0.003ms returns 4
T3204 000:178.026 JLINK_GetSpeed()
T3204 000:178.030 - 0.003ms returns 4000
T3204 000:178.037 JLINK_ReadMemU32(0xE000E004, 0x1 Items)
T3204 000:178.045   CPU_ReadMem(4 bytes @ 0xE000E004)
T3204 000:178.690   Data:  02 00 00 00
T3204 000:178.697 - 0.659ms returns 1 (0x1)
T3204 000:178.730 JLINK_ReadMemU32(0xE000E004, 0x1 Items)
T3204 000:178.735   CPU_ReadMem(4 bytes @ 0xE000E004)
T3204 000:179.389   Data:  02 00 00 00
T3204 000:179.395 - 0.664ms returns 1 (0x1)
T3204 000:179.422 JLINK_WriteMemEx(0xE0001000, 0x0000001C Bytes, Flags = 0x02000004)
T3204 000:179.426   Data:  01 00 00 00 00 00 00 00 00 00 00 00 00 00 00 00 ...
T3204 000:179.435   CPU_WriteMem(28 bytes @ 0xE0001000)
T3204 000:180.267 - 0.844ms returns 0x1C
T3204 000:180.307 JLINK_HasError()
T3204 000:180.313 JLINK_ReadReg(R15 (PC))
T3204 000:180.318 - 0.005ms returns 0x0800024C
T3204 000:180.322 JLINK_ReadReg(XPSR)
T3204 000:180.325 - 0.003ms returns 0x01000000
T3204 000:180.361 JLINK_WriteU32(0xE0041FB0, 0xC5ACCE55)
T3204 000:180.365   Debug reg: ETMLAR
T3204 000:180.372   CPU_WriteMem(4 bytes @ 0xE0041FB0)
T3204 000:181.040 - 0.678ms returns 0 (0x00000000)
T3204 000:181.079 JLINK_ReadMemU32(0xE0041000, 0x1 Items)
T3204 000:181.085   CPU_ReadMem(4 bytes @ 0xE0041000)
T3204 000:181.758   Data:  01 00 00 00
T3204 000:181.763   Debug reg: ETM_CR
T3204 000:181.768 - 0.689ms returns 1 (0x1)
T3204 000:181.795 JLINK_WriteU32(0xE0041000, 0x00000000)
T3204 000:181.799   Debug reg: ETM_CR
T3204 000:181.806   CPU_WriteMem(4 bytes @ 0xE0041000)
T3204 000:182.498 - 0.702ms returns 0 (0x00000000)
T3204 000:184.129 JLINK_SWO_Control(JLINKARM_SWO_CMD_GET_SPEED_INFO, ...)
T3204 000:184.869 - 0.740ms returns 0x00
T3204 000:184.879 JLINK_SWO_Control(JLINKARM_SWO_CMD_STOP, ...)
T3204 000:185.784 - 0.905ms returns 0x00
T3204 000:185.790 JLINK_SWO_Control(JLINKARM_SWO_CMD_START, ...)
T3204 000:187.969 - 2.179ms returns 0x00
T3204 000:187.974 JLINK_WriteU32(0xE0040004, 0x00000001)
T3204 000:187.978   Debug reg: TPIU_CSPSR
T3204 000:187.988   CPU_WriteMem(4 bytes @ 0xE0040004)
T3204 000:188.685 - 0.710ms returns 0 (0x00000000)
T3204 000:188.712 JLINK_WriteU32(0xE0040010, 0x0000004A)
T3204 000:188.716   Debug reg: TPIU_ACPR
T3204 000:188.722 - 0.010ms returns 0 (0x00000000)
T3204 000:188.727 JLINK_WriteU32(0xE00400F0, 0x00000002)
T3204 000:188.730   Debug reg: TPIU_SPPR
T3204 000:188.736 - 0.009ms returns 0 (0x00000000)
T3204 000:188.740 JLINK_WriteU32(0xE0040304, 0x00000000)
T3204 000:188.743   Debug reg: TPIU_FFCR
T3204 000:188.749 - 0.008ms returns 0 (0x00000000)
T3204 000:188.753 JLINK_WriteU32(0xE0000FB0, 0xC5ACCE55)
T3204 000:188.757   Debug reg: ITM_LOCKACCESS
T3204 000:188.762   CPU_WriteMem(4 bytes @ 0xE0000FB0)
T3204 000:189.451 - 0.698ms returns 0 (0x00000000)
T3204 000:189.478 JLINK_WriteU32(0xE0000E80, 0x0001000D)
T3204 000:189.483   Debug reg: ITM_TCR
T3204 000:189.489 - 0.010ms returns 0 (0x00000000)
T3204 000:189.493 JLINK_WriteU32(0xE0000E00, 0xFFFFFFFF)
T3204 000:189.496   Debug reg: ITM_TER
T3204 000:189.502 - 0.008ms returns 0 (0x00000000)
T3204 000:189.506 JLINK_WriteU32(0xE0000E40, 0x00000008)
T3204 000:189.509   Debug reg: ITM_TPR
T3204 000:189.515 - 0.009ms returns 0 (0x00000000)
T3204 000:189.519 JLINK_WriteU32(0xE0001000, 0x00010A1F)
T3204 000:189.522   Debug reg: DWT_CTRL
T3204 000:189.528   CPU_WriteMem(4 bytes @ 0xE0001000)
T3204 000:190.253 - 0.732ms returns 0 (0x00000000)
T3204 000:259.152 JLINK_HasError()
T3204 000:259.175 JLINK_SetResetType(JLINKARM_CM3_RESET_TYPE_NORMAL)
T3204 000:259.180 - 0.005ms returns JLINKARM_CM3_RESET_TYPE_NORMAL
T3204 000:259.184 JLINK_Reset()
T3204 000:259.412   CPU_WriteMem(4 bytes @ 0xE0000E00)
T3204 000:259.426   CPU_WriteMem(4 bytes @ 0xE0000E40)
T3204 000:259.431   CPU_WriteMem(4 bytes @ 0xE0000E80)
T3204 000:259.437   CPU_WriteMem(4 bytes @ 0xE0040010)
T3204 000:259.442   CPU_WriteMem(4 bytes @ 0xE00400F0)
T3204 000:259.457   CPU_WriteMem(4 bytes @ 0xE0040304)
T3204 000:261.289   JLINK_GetResetTypeDesc
T3204 000:261.298   - 0.008ms 
T3204 000:261.317   Reset type: NORMAL (https://wiki.segger.com/J-Link_Reset_Strategies)
T3204 000:261.324   CPU_WriteMem(4 bytes @ 0xE000EDF0)
T3204 000:262.272   CPU_WriteMem(4 bytes @ 0xE000EDFC)
T3204 000:263.055   Reset: Halt core after reset via DEMCR.VC_CORERESET.
T3204 000:264.228   Reset: Reset device via AIRCR.SYSRESETREQ.
T3204 000:264.236   CPU_WriteMem(4 bytes @ 0xE000ED0C)
T3204 000:319.621   CPU_ReadMem(4 bytes @ 0xE000EDF0)
T3204 000:320.489   CPU_ReadMem(4 bytes @ 0xE000EDF0)
T3204 000:321.187   CPU_WriteMem(4 bytes @ 0xE000EDFC)
T3204 000:327.610   CPU_ReadMem(4 bytes @ 0xE000EDF0)
T3204 000:331.594   CPU_WriteMem(4 bytes @ 0xE0002000)
T3204 000:332.259   CPU_ReadMem(4 bytes @ 0xE000EDFC)
T3204 000:332.934   CPU_ReadMem(4 bytes @ 0xE0001000)
T3204 000:333.809 - 74.622ms 
T3204 000:333.866 JLINK_WriteU32(0xE000EDFC, 0x01000000)
T3204 000:333.872   Debug reg: DEMCR
T3204 000:333.885   CPU_WriteMem(4 bytes @ 0xE000EDFC)
T3204 000:334.998 - 1.129ms returns 0 (0x00000000)
T3204 000:335.072 JLINK_HasError()
T3204 000:335.077 JLINK_ReadReg(R15 (PC))
T3204 000:335.082 - 0.004ms returns 0x0800024C
T3204 000:335.134 JLINK_ReadReg(XPSR)
T3204 000:335.140 - 0.005ms returns 0x01000000
T3204 000:340.303 JLINK_ReadMemEx(0x08000188, 0x3C Bytes, Flags = 0x02000000)
T3204 000:340.315   CPU_ReadMem(128 bytes @ 0x08000180)
T3204 000:341.883    -- Updating C cache (128 bytes @ 0x08000180)
T3204 000:341.911    -- Read from C cache (60 bytes @ 0x08000188)
T3204 000:341.922   Data:  DF F8 0C D0 00 F0 70 F8 00 48 00 47 3D 04 00 08 ...
T3204 000:341.940 - 1.636ms returns 60 (0x3C)
T3204 000:342.008 JLINK_ReadMemEx(0x080001C4, 0x3C Bytes, Flags = 0x02000000)
T3204 000:342.016    -- Read from C cache (60 bytes @ 0x080001C4)
T3204 000:342.021   Data:  6F 8F 00 DF 00 BF 00 BF 08 ED 00 E0 1D 4B 19 68 ...
T3204 000:342.026 - 0.018ms returns 60 (0x3C)
T3204 000:342.033 JLINK_ReadMemEx(0x08000200, 0x3C Bytes, Flags = 0x02000000)
T3204 000:342.042   CPU_ReadMem(64 bytes @ 0x08000200)
T3204 000:343.340    -- Updating C cache (64 bytes @ 0x08000200)
T3204 000:343.371    -- Read from C cache (60 bytes @ 0x08000200)
T3204 000:343.381   Data:  08 BF 20 ED 10 8A 20 E9 F0 4F 10 60 08 B4 4F F0 ...
T3204 000:343.397 - 1.364ms returns 60 (0x3C)
T3204 000:343.472 JLINK_ReadMemEx(0x0800023C, 0x3C Bytes, Flags = 0x02000000)
T3204 000:343.482   CPU_ReadMem(64 bytes @ 0x08000240)
T3204 000:344.511    -- Updating C cache (64 bytes @ 0x08000240)
T3204 000:344.521    -- Read from C cache (60 bytes @ 0x0800023C)
T3204 000:344.526   Data:  10 8A 80 F3 09 88 BF F3 6F 8F 70 47 14 00 00 20 ...
T3204 000:344.531 - 1.059ms returns 60 (0x3C)
T3204 000:407.266 JLINK_WriteU32(0xE0001008, 0x00000000)
T3204 000:407.291   Debug reg: DWT_CPICNT
T3204 000:407.311 - 0.045ms returns 0 (0x00000000)
T3204 000:407.316 JLINK_WriteU32(0xE000100C, 0x00000000)
T3204 000:407.320   Debug reg: DWT_EXCCNT
T3204 000:407.326 - 0.009ms returns 0 (0x00000000)
T3204 000:407.330 JLINK_WriteU32(0xE0001010, 0x00000000)
T3204 000:407.333   Debug reg: DWT_SLEEPCNT
T3204 000:407.339 - 0.009ms returns 0 (0x00000000)
T3204 000:407.343 JLINK_WriteU32(0xE0001014, 0x00000000)
T3204 000:407.347   Debug reg: DWT_LSUCNT
T3204 000:407.352 - 0.009ms returns 0 (0x00000000)
T3204 000:407.356 JLINK_WriteU32(0xE0001018, 0x00000000)
T3204 000:407.360   Debug reg: DWT_FOLDCNT
T3204 000:407.365 - 0.009ms returns 0 (0x00000000)
T3204 001:162.255 JLINK_HasError()
T3204 001:162.281 JLINK_ReadReg(R0)
T3204 001:163.098 - 0.814ms returns 0x00000000
T3204 001:163.144 JLINK_ReadReg(R1)
T3204 001:163.149 - 0.004ms returns 0x00000000
T3204 001:163.153 JLINK_ReadReg(R2)
T3204 001:163.156 - 0.003ms returns 0x00000000
T3204 001:163.161 JLINK_ReadReg(R3)
T3204 001:163.164 - 0.003ms returns 0x00000000
T3204 001:163.171 JLINK_ReadReg(R4)
T3204 001:163.175 - 0.003ms returns 0x00000000
T3204 001:163.179 JLINK_ReadReg(R5)
T3204 001:163.183 - 0.003ms returns 0x00000000
T3204 001:163.187 JLINK_ReadReg(R6)
T3204 001:163.190 - 0.003ms returns 0x00000000
T3204 001:163.194 JLINK_ReadReg(R7)
T3204 001:163.198 - 0.003ms returns 0x00000000
T3204 001:163.205 JLINK_ReadReg(R8)
T3204 001:163.208 - 0.006ms returns 0x00000000
T3204 001:163.212 JLINK_ReadReg(R9)
T3204 001:163.216 - 0.003ms returns 0x00000000
T3204 001:163.220 JLINK_ReadReg(R10)
T3204 001:163.223 - 0.003ms returns 0x00000000
T3204 001:163.227 JLINK_ReadReg(R11)
T3204 001:163.231 - 0.003ms returns 0x00000000
T3204 001:163.235 JLINK_ReadReg(R12)
T3204 001:163.238 - 0.003ms returns 0x00000000
T3204 001:163.242 JLINK_ReadReg(R13 (SP))
T3204 001:163.246 - 0.003ms returns 0x20013148
T3204 001:163.250 JLINK_ReadReg(R14)
T3204 001:163.254 - 0.003ms returns 0xFFFFFFFF
T3204 001:163.258 JLINK_ReadReg(R15 (PC))
T3204 001:163.261 - 0.003ms returns 0x0800024C
T3204 001:163.265 JLINK_ReadReg(XPSR)
T3204 001:163.269 - 0.003ms returns 0x01000000
T3204 001:163.273 JLINK_ReadReg(MSP)
T3204 001:163.276 - 0.003ms returns 0x20013148
T3204 001:163.280 JLINK_ReadReg(PSP)
T3204 001:163.284 - 0.003ms returns 0x00000000
T3204 001:163.288 JLINK_ReadReg(CFBP)
T3204 001:163.292 - 0.003ms returns 0x00000000
T3204 001:163.299 JLINK_ReadReg(FPSCR)
T3204 001:168.124 - 4.823ms returns 0x00000000
T3204 001:168.161 JLINK_ReadReg(FPS0)
T3204 001:168.166 - 0.005ms returns 0x00000000
T3204 001:168.171 JLINK_ReadReg(FPS1)
T3204 001:168.175 - 0.003ms returns 0x00000000
T3204 001:168.179 JLINK_ReadReg(FPS2)
T3204 001:168.182 - 0.003ms returns 0x00000000
T3204 001:168.186 JLINK_ReadReg(FPS3)
T3204 001:168.190 - 0.003ms returns 0x00000000
T3204 001:168.195 JLINK_ReadReg(FPS4)
T3204 001:168.198 - 0.003ms returns 0x00000000
T3204 001:168.202 JLINK_ReadReg(FPS5)
T3204 001:168.206 - 0.003ms returns 0x00000000
T3204 001:168.210 JLINK_ReadReg(FPS6)
T3204 001:168.213 - 0.003ms returns 0x00000000
T3204 001:168.217 JLINK_ReadReg(FPS7)
T3204 001:168.221 - 0.003ms returns 0x00000000
T3204 001:168.225 JLINK_ReadReg(FPS8)
T3204 001:168.228 - 0.003ms returns 0x00000000
T3204 001:168.232 JLINK_ReadReg(FPS9)
T3204 001:168.236 - 0.003ms returns 0x00000000
T3204 001:168.240 JLINK_ReadReg(FPS10)
T3204 001:168.243 - 0.003ms returns 0x00000000
T3204 001:168.248 JLINK_ReadReg(FPS11)
T3204 001:168.251 - 0.003ms returns 0x00000000
T3204 001:168.255 JLINK_ReadReg(FPS12)
T3204 001:168.259 - 0.003ms returns 0x00000000
T3204 001:168.263 JLINK_ReadReg(FPS13)
T3204 001:168.266 - 0.003ms returns 0x00000000
T3204 001:168.270 JLINK_ReadReg(FPS14)
T3204 001:168.274 - 0.003ms returns 0x00000000
T3204 001:168.278 JLINK_ReadReg(FPS15)
T3204 001:168.281 - 0.003ms returns 0x00000000
T3204 001:168.285 JLINK_ReadReg(FPS16)
T3204 001:168.289 - 0.003ms returns 0x00000000
T3204 001:168.293 JLINK_ReadReg(FPS17)
T3204 001:168.297 - 0.003ms returns 0x00000000
T3204 001:168.301 JLINK_ReadReg(FPS18)
T3204 001:168.305 - 0.003ms returns 0x00000000
T3204 001:168.309 JLINK_ReadReg(FPS19)
T3204 001:168.312 - 0.003ms returns 0x00000000
T3204 001:168.316 JLINK_ReadReg(FPS20)
T3204 001:168.320 - 0.003ms returns 0x00000000
T3204 001:168.324 JLINK_ReadReg(FPS21)
T3204 001:168.327 - 0.003ms returns 0x00000000
T3204 001:168.331 JLINK_ReadReg(FPS22)
T3204 001:168.335 - 0.003ms returns 0x00000000
T3204 001:168.339 JLINK_ReadReg(FPS23)
T3204 001:168.342 - 0.003ms returns 0x00000000
T3204 001:168.346 JLINK_ReadReg(FPS24)
T3204 001:168.350 - 0.003ms returns 0x00000000
T3204 001:168.354 JLINK_ReadReg(FPS25)
T3204 001:168.358 - 0.003ms returns 0x00000000
T3204 001:168.362 JLINK_ReadReg(FPS26)
T3204 001:168.365 - 0.003ms returns 0x00000000
T3204 001:168.369 JLINK_ReadReg(FPS27)
T3204 001:168.373 - 0.003ms returns 0x00000000
T3204 001:168.377 JLINK_ReadReg(FPS28)
T3204 001:168.380 - 0.003ms returns 0x00000000
T3204 001:168.384 JLINK_ReadReg(FPS29)
T3204 001:168.388 - 0.003ms returns 0x00000000
T3204 001:168.392 JLINK_ReadReg(FPS30)
T3204 001:168.396 - 0.003ms returns 0x00000000
T3204 001:168.400 JLINK_ReadReg(FPS31)
T3204 001:168.403 - 0.003ms returns 0x00000000
T3204 001:168.419 JLINK_ReadMemEx(0x20000074, 0x4 Bytes, Flags = 0x02000000)
T3204 001:168.431   CPU_ReadMem(64 bytes @ 0x20000040)
T3204 001:169.666    -- Updating C cache (64 bytes @ 0x20000040)
T3204 001:169.676    -- Read from C cache (4 bytes @ 0x20000074)
T3204 001:169.681   Data:  00 00 00 00
T3204 001:169.686 - 1.267ms returns 4 (0x4)
T3204 001:175.749 JLINK_ReadMemEx(0x20000078, 0x4 Bytes, Flags = 0x02000000)
T3204 001:175.779    -- Read from C cache (4 bytes @ 0x20000078)
T3204 001:175.785   Data:  00 00 00 00
T3204 001:175.791 - 0.042ms returns 4 (0x4)
T3204 001:185.837 JLINK_WriteMemEx(0xE0001050, 0x0000000C Bytes, Flags = 0x02000004)
T3204 001:185.855   Data:  74 00 00 20 02 00 00 00 0F 00 00 00
T3204 001:185.875   CPU_WriteMem(4 bytes @ 0xE0001008)
T3204 001:185.881   CPU_WriteMem(4 bytes @ 0xE000100C)
T3204 001:185.886   CPU_WriteMem(4 bytes @ 0xE0001010)
T3204 001:185.891   CPU_WriteMem(4 bytes @ 0xE0001014)
T3204 001:185.897   CPU_WriteMem(4 bytes @ 0xE0001018)
T3204 001:187.535   CPU_WriteMem(12 bytes @ 0xE0001050)
T3204 001:188.292 - 2.454ms returns 0xC
T3204 001:188.368 JLINK_WriteMemEx(0xE0001040, 0x0000000C Bytes, Flags = 0x02000004)
T3204 001:188.376   Data:  78 00 00 20 02 00 00 00 0F 00 00 00
T3204 001:188.387   CPU_WriteMem(12 bytes @ 0xE0001040)
T3204 001:189.193 - 0.824ms returns 0xC
T0B5C 001:201.928 JLINK_ReadMemEx(0x0800024C, 0x2 Bytes, Flags = 0x02000000)
T0B5C 001:201.953    -- Read from C cache (2 bytes @ 0x0800024C)
T0B5C 001:201.959   Data:  06 48
T0B5C 001:201.965 - 0.038ms returns 2 (0x2)
T0B5C 001:201.970 JLINK_HasError()
T0B5C 001:201.977 JLINK_SetBPEx(Addr = 0x0800043C, Type = 0xFFFFFFF2)
T0B5C 001:201.983 - 0.006ms returns 0x00000001
T0B5C 001:201.987 JLINK_HasError()
T0B5C 001:201.991 JLINK_HasError()
T0B5C 001:201.996 JLINK_ReadMemU32(0xE0001004, 0x1 Items)
T0B5C 001:202.005   Data:  00 00 00 00
T0B5C 001:202.011   Debug reg: DWT_CYCCNT
T0B5C 001:202.016 - 0.019ms returns 1 (0x1)
T0B5C 001:202.020 JLINK_WriteU32(0xE0001004, 0x000003FF)
T0B5C 001:202.023   Debug reg: DWT_CYCCNT
T0B5C 001:202.032 - 0.012ms returns 0 (0x00000000)
T0B5C 001:202.037 JLINK_WriteU32(0xE0001000, 0x00410A1F)
T0B5C 001:202.040   Debug reg: DWT_CTRL
T0B5C 001:202.047   CPU_WriteMem(4 bytes @ 0xE0001000)
T0B5C 001:202.857 - 0.818ms returns 0 (0x00000000)
T0B5C 001:202.893 JLINK_WriteU32(0xE0000E80, 0x0001000F)
T0B5C 001:202.897   Debug reg: ITM_TCR
T0B5C 001:202.904 - 0.011ms returns 0 (0x00000000)
T0B5C 001:202.914 JLINK_SWO_Control(JLINKARM_SWO_CMD_GET_NUM_BYTES, ...)
T0B5C 001:203.017 - 0.101ms returns 0x00
T0B5C 001:203.031 JLINK_Go()
T0B5C 001:203.041   CPU_WriteMem(4 bytes @ 0xE0002000)
T0B5C 001:203.718   CPU_ReadMem(4 bytes @ 0xE0001000)
T0B5C 001:204.362   CPU_WriteMem(4 bytes @ 0xE0000E80)
T0B5C 001:204.374   CPU_WriteMem(4 bytes @ 0xE0002008)
T0B5C 001:204.379   CPU_WriteMem(4 bytes @ 0xE000200C)
T0B5C 001:204.384   CPU_WriteMem(4 bytes @ 0xE0002010)
T0B5C 001:204.389   CPU_WriteMem(4 bytes @ 0xE0002014)
T0B5C 001:204.394   CPU_WriteMem(4 bytes @ 0xE0002018)
T0B5C 001:204.399   CPU_WriteMem(4 bytes @ 0xE000201C)
T0B5C 001:206.299   CPU_WriteMem(4 bytes @ 0xE0001004)
T0B5C 001:207.964   Memory map 'after startup completion point' is active
T0B5C 001:207.986 - 4.953ms 
T0B5C 001:208.046 JLINK_WriteU32(0xE0001000, 0x00010A1F)
T0B5C 001:208.051   Debug reg: DWT_CTRL
T0B5C 001:208.067   CPU is running
T0B5C 001:208.080   CPU_WriteMem(4 bytes @ 0xE0001000)
T0B5C 001:208.809 - 0.762ms returns 0 (0x00000000)
T0B5C 001:309.877 JLINK_SWO_Read(..., Offset = 0x00, NumBytes = 0x400000)
T0B5C 001:309.904   Data:  00 00 00 00 00 00 00 00 00 00 00 00 00 00 00 00 ...
T0B5C 001:309.911 - 0.034ms returns NumBytesRead = 0x400000
T0B5C 001:309.916 JLINK_SWO_Control(JLINKARM_SWO_CMD_FLUSH, ...)
T0B5C 001:310.108 - 0.191ms returns 0x00
T0B5C 001:319.219 JLINK_HasError()
T0B5C 001:319.235 JLINK_IsHalted()
T0B5C 001:322.718 - 3.482ms returns TRUE
T0B5C 001:322.755 JLINK_HasError()
T0B5C 001:322.760 JLINK_Halt()
T0B5C 001:322.764 - 0.003ms returns 0x00
T0B5C 001:322.769 JLINK_IsHalted()
T0B5C 001:322.772 - 0.003ms returns TRUE
T0B5C 001:322.777 JLINK_IsHalted()
T0B5C 001:322.781 - 0.003ms returns TRUE
T0B5C 001:322.785 JLINK_IsHalted()
T0B5C 001:322.788 - 0.003ms returns TRUE
T0B5C 001:322.793 JLINK_HasError()
T0B5C 001:322.798 JLINK_ReadReg(R15 (PC))
T0B5C 001:322.803 - 0.005ms returns 0x0800043C
T0B5C 001:322.807 JLINK_ReadReg(XPSR)
T0B5C 001:322.811 - 0.003ms returns 0x61000000
T0B5C 001:322.816 JLINK_SWO_Read(..., Offset = 0x00, NumBytes = 0x400000)
T0B5C 001:322.821   Data:  00 00 00 00 00 00 00 00 00 00 00 00 00 00 00 00 ...
T0B5C 001:322.826 - 0.010ms returns NumBytesRead = 0x400000
T0B5C 001:322.831 JLINK_SWO_Control(JLINKARM_SWO_CMD_FLUSH, ...)
T0B5C 001:323.294 - 0.463ms returns 0x00
T0B5C 001:331.901 JLINK_HasError()
T0B5C 001:331.911 JLINK_ClrBPEx(BPHandle = 0x00000001)
T0B5C 001:331.916 - 0.005ms returns 0x00
T0B5C 001:331.920 JLINK_HasError()
T0B5C 001:331.924 JLINK_HasError()
T0B5C 001:331.929 JLINK_ReadMemU32(0xE000ED30, 0x1 Items)
T0B5C 001:331.940   CPU_ReadMem(4 bytes @ 0xE000ED30)
T0B5C 001:332.737   Data:  02 00 00 00
T0B5C 001:332.748 - 0.819ms returns 1 (0x1)
T0B5C 001:332.794 JLINK_ReadMemU32(0xE0001028, 0x1 Items)
T0B5C 001:332.807   CPU_ReadMem(4 bytes @ 0xE0001028)
T0B5C 001:333.494   Data:  00 00 00 00
T0B5C 001:333.501   Debug reg: DWT_FUNC[0]
T0B5C 001:333.506 - 0.712ms returns 1 (0x1)
T0B5C 001:333.535 JLINK_ReadMemU32(0xE0001038, 0x1 Items)
T0B5C 001:333.541   CPU_ReadMem(4 bytes @ 0xE0001038)
T0B5C 001:334.206   Data:  00 02 00 00
T0B5C 001:334.212   Debug reg: DWT_FUNC[1]
T0B5C 001:334.217 - 0.681ms returns 1 (0x1)
T0B5C 001:334.284 JLINK_HasError()
T0B5C 001:334.289 JLINK_ReadReg(R0)
T0B5C 001:334.294 - 0.004ms returns 0x0800043D
T0B5C 001:334.298 JLINK_ReadReg(R1)
T0B5C 001:334.302 - 0.003ms returns 0x20013148
T0B5C 001:334.305 JLINK_ReadReg(R2)
T0B5C 001:334.309 - 0.003ms returns 0x00000000
T0B5C 001:334.313 JLINK_ReadReg(R3)
T0B5C 001:334.316 - 0.003ms returns 0x0800042D
T0B5C 001:334.320 JLINK_ReadReg(R4)
T0B5C 001:334.324 - 0.003ms returns 0x08000C98
T0B5C 001:334.328 JLINK_ReadReg(R5)
T0B5C 001:334.331 - 0.003ms returns 0x08000C98
T0B5C 001:334.335 JLINK_ReadReg(R6)
T0B5C 001:334.339 - 0.003ms returns 0x00000000
T0B5C 001:334.342 JLINK_ReadReg(R7)
T0B5C 001:334.346 - 0.003ms returns 0x00000000
T0B5C 001:334.350 JLINK_ReadReg(R8)
T0B5C 001:334.353 - 0.003ms returns 0x00000000
T0B5C 001:334.357 JLINK_ReadReg(R9)
T0B5C 001:334.361 - 0.003ms returns 0x00000000
T0B5C 001:334.365 JLINK_ReadReg(R10)
T0B5C 001:334.368 - 0.003ms returns 0x00000000
T0B5C 001:334.372 JLINK_ReadReg(R11)
T0B5C 001:334.376 - 0.003ms returns 0x00000000
T0B5C 001:334.380 JLINK_ReadReg(R12)
T0B5C 001:334.383 - 0.003ms returns 0x00000000
T0B5C 001:334.387 JLINK_ReadReg(R13 (SP))
T0B5C 001:334.391 - 0.003ms returns 0x20013148
T0B5C 001:334.395 JLINK_ReadReg(R14)
T0B5C 001:334.398 - 0.003ms returns 0x0800028D
T0B5C 001:334.403 JLINK_ReadReg(R15 (PC))
T0B5C 001:334.406 - 0.003ms returns 0x0800043C
T0B5C 001:334.410 JLINK_ReadReg(XPSR)
T0B5C 001:334.414 - 0.003ms returns 0x61000000
T0B5C 001:334.418 JLINK_ReadReg(MSP)
T0B5C 001:334.421 - 0.003ms returns 0x20013148
T0B5C 001:334.425 JLINK_ReadReg(PSP)
T0B5C 001:334.428 - 0.003ms returns 0x00000000
T0B5C 001:334.432 JLINK_ReadReg(CFBP)
T0B5C 001:334.436 - 0.003ms returns 0x00000000
T0B5C 001:334.440 JLINK_ReadReg(FPSCR)
T0B5C 001:339.461 - 5.019ms returns 0x00000000
T0B5C 001:339.506 JLINK_ReadReg(FPS0)
T0B5C 001:339.512 - 0.006ms returns 0x00000000
T0B5C 001:339.516 JLINK_ReadReg(FPS1)
T0B5C 001:339.519 - 0.003ms returns 0x00000000
T0B5C 001:339.524 JLINK_ReadReg(FPS2)
T0B5C 001:339.527 - 0.003ms returns 0x00000000
T0B5C 001:339.531 JLINK_ReadReg(FPS3)
T0B5C 001:339.535 - 0.003ms returns 0x00000000
T0B5C 001:339.539 JLINK_ReadReg(FPS4)
T0B5C 001:339.542 - 0.003ms returns 0x00000000
T0B5C 001:339.546 JLINK_ReadReg(FPS5)
T0B5C 001:339.550 - 0.003ms returns 0x00000000
T0B5C 001:339.554 JLINK_ReadReg(FPS6)
T0B5C 001:339.557 - 0.003ms returns 0x00000000
T0B5C 001:339.561 JLINK_ReadReg(FPS7)
T0B5C 001:339.565 - 0.003ms returns 0x00000000
T0B5C 001:339.569 JLINK_ReadReg(FPS8)
T0B5C 001:339.573 - 0.003ms returns 0x00000000
T0B5C 001:339.577 JLINK_ReadReg(FPS9)
T0B5C 001:339.580 - 0.003ms returns 0x00000000
T0B5C 001:339.584 JLINK_ReadReg(FPS10)
T0B5C 001:339.588 - 0.003ms returns 0x00000000
T0B5C 001:339.592 JLINK_ReadReg(FPS11)
T0B5C 001:339.595 - 0.003ms returns 0x00000000
T0B5C 001:339.599 JLINK_ReadReg(FPS12)
T0B5C 001:339.603 - 0.003ms returns 0x00000000
T0B5C 001:339.607 JLINK_ReadReg(FPS13)
T0B5C 001:339.611 - 0.003ms returns 0x00000000
T0B5C 001:339.615 JLINK_ReadReg(FPS14)
T0B5C 001:339.618 - 0.003ms returns 0x00000000
T0B5C 001:339.623 JLINK_ReadReg(FPS15)
T0B5C 001:339.626 - 0.003ms returns 0x00000000
T0B5C 001:339.630 JLINK_ReadReg(FPS16)
T0B5C 001:339.634 - 0.003ms returns 0x00000000
T0B5C 001:339.638 JLINK_ReadReg(FPS17)
T0B5C 001:339.642 - 0.003ms returns 0x00000000
T0B5C 001:339.646 JLINK_ReadReg(FPS18)
T0B5C 001:339.649 - 0.003ms returns 0x00000000
T0B5C 001:339.653 JLINK_ReadReg(FPS19)
T0B5C 001:339.657 - 0.003ms returns 0x00000000
T0B5C 001:339.660 JLINK_ReadReg(FPS20)
T0B5C 001:339.724 - 0.063ms returns 0x00000000
T0B5C 001:339.732 JLINK_ReadReg(FPS21)
T0B5C 001:339.736 - 0.003ms returns 0x00000000
T0B5C 001:339.740 JLINK_ReadReg(FPS22)
T0B5C 001:339.744 - 0.003ms returns 0x00000000
T0B5C 001:339.748 JLINK_ReadReg(FPS23)
T0B5C 001:339.751 - 0.003ms returns 0x00000000
T0B5C 001:339.756 JLINK_ReadReg(FPS24)
T0B5C 001:339.759 - 0.003ms returns 0x00000000
T0B5C 001:339.763 JLINK_ReadReg(FPS25)
T0B5C 001:339.767 - 0.003ms returns 0x00000000
T0B5C 001:339.771 JLINK_ReadReg(FPS26)
T0B5C 001:339.774 - 0.003ms returns 0x00000000
T0B5C 001:339.779 JLINK_ReadReg(FPS27)
T0B5C 001:339.782 - 0.003ms returns 0x00000000
T0B5C 001:339.786 JLINK_ReadReg(FPS28)
T0B5C 001:339.790 - 0.003ms returns 0x00000000
T0B5C 001:339.794 JLINK_ReadReg(FPS29)
T0B5C 001:339.798 - 0.003ms returns 0x00000000
T0B5C 001:339.802 JLINK_ReadReg(FPS30)
T0B5C 001:339.806 - 0.004ms returns 0x00000000
T0B5C 001:339.810 JLINK_ReadReg(FPS31)
T0B5C 001:339.813 - 0.003ms returns 0x00000000
T3204 001:340.201 JLINK_ReadMemEx(0x00000000, 0x4 Bytes, Flags = 0x02000000)
T3204 001:340.223   CPU_ReadMem(4 bytes @ 0x40023844)
T3204 001:341.000   CPU_ReadMem(64 bytes @ 0x08000000)
T3204 001:341.976    -- Updating C cache (64 bytes @ 0x08000000)
T3204 001:341.988    -- Read from C cache (4 bytes @ 0x08000000)
T3204 001:341.994   Data:  48 31 01 20
T3204 001:342.000 - 1.799ms returns 4 (0x4)
T3204 001:342.942 JLINK_HasError()
T3204 001:342.958 JLINK_ReadMemU32(0xE0001004, 0x1 Items)
T3204 001:342.969   CPU_ReadMem(4 bytes @ 0xE0001004)
T3204 001:343.726   Data:  CA F6 01 00
T3204 001:343.742   Debug reg: DWT_CYCCNT
T3204 001:343.748 - 0.789ms returns 1 (0x1)
T3204 001:343.884 JLINK_ReadMemEx(0x20000074, 0x4 Bytes, Flags = 0x02000000)
T3204 001:343.894   CPU_ReadMem(64 bytes @ 0x20000040)
T3204 001:344.931    -- Updating C cache (64 bytes @ 0x20000040)
T3204 001:344.937    -- Read from C cache (4 bytes @ 0x20000074)
T3204 001:344.942   Data:  00 00 00 00
T3204 001:344.948 - 1.063ms returns 4 (0x4)
T3204 001:344.988 JLINK_ReadMemEx(0x20000078, 0x4 Bytes, Flags = 0x02000000)
T3204 001:344.993    -- Read from C cache (4 bytes @ 0x20000078)
T3204 001:344.998   Data:  00 00 00 00
T3204 001:345.003 - 0.015ms returns 4 (0x4)
T3204 001:348.409 JLINK_ReadMemEx(0x0800033C, 0x3C Bytes, Flags = 0x02000000)
T3204 001:348.427   CPU_ReadMem(128 bytes @ 0x08000300)
T3204 001:349.910    -- Updating C cache (128 bytes @ 0x08000300)
T3204 001:349.928    -- Read from C cache (60 bytes @ 0x0800033C)
T3204 001:349.936   Data:  01 68 C1 F3 81 01 02 29 FA D1 0C BD 00 38 02 40 ...
T3204 001:349.942 - 1.533ms returns 60 (0x3C)
T3204 001:350.001 JLINK_ReadMemEx(0x08000378, 0x3C Bytes, Flags = 0x02000000)
T3204 001:350.010   CPU_ReadMem(64 bytes @ 0x08000380)
T3204 001:351.082    -- Updating C cache (64 bytes @ 0x08000380)
T3204 001:351.088    -- Read from C cache (60 bytes @ 0x08000378)
T3204 001:351.094   Data:  80 F3 11 88 10 BD 00 00 04 ED 00 E0 10 B5 12 48 ...
T3204 001:351.099 - 1.098ms returns 60 (0x3C)
T3204 001:351.132 JLINK_ReadMemEx(0x080003B4, 0x3C Bytes, Flags = 0x02000000)
T3204 001:351.137   CPU_ReadMem(64 bytes @ 0x080003C0)
T3204 001:352.165    -- Updating C cache (64 bytes @ 0x080003C0)
T3204 001:352.172    -- Read from C cache (60 bytes @ 0x080003B4)
T3204 001:352.178   Data:  80 22 02 60 06 48 0C 30 01 60 FF F7 6F FF 03 49 ...
T3204 001:352.183 - 1.051ms returns 60 (0x3C)
T3204 001:352.213 JLINK_ReadMemEx(0x080003F0, 0x10 Bytes, Flags = 0x02000000)
T3204 001:352.218    -- Read from C cache (16 bytes @ 0x080003F0)
T3204 001:352.223   Data:  CB FA A6 60 01 20 00 F0 C7 FA F6 E7 6C 00 00 20
T3204 001:352.228 - 0.014ms returns 16 (0x10)
T3204 001:352.232 JLINK_ReadMemEx(0x08000400, 0x2C Bytes, Flags = 0x02000000)
T3204 001:352.237   CPU_ReadMem(64 bytes @ 0x08000400)
T3204 001:353.301    -- Updating C cache (64 bytes @ 0x08000400)
T3204 001:353.317    -- Read from C cache (44 bytes @ 0x08000400)
T3204 001:353.322   Data:  00 26 05 4C 01 25 E5 60 01 20 00 F0 BD FA E6 60 ...
T3204 001:353.333 - 1.100ms returns 44 (0x2C)
T3204 001:353.367 JLINK_ReadMemEx(0x0800042C, 0x3C Bytes, Flags = 0x02000000)
T3204 001:353.372   CPU_ReadMem(64 bytes @ 0x08000440)
T3204 001:354.428    -- Updating C cache (64 bytes @ 0x08000440)
T3204 001:354.434    -- Read from C cache (60 bytes @ 0x0800042C)
T3204 001:354.439   Data:  00 20 01 E0 01 C1 12 1F 00 2A FB D1 70 47 00 00 ...
T3204 001:354.444 - 1.077ms returns 60 (0x3C)
T3204 002:978.956 JLINK_HasError()
T3204 002:978.985 JLINK_SetResetType(JLINKARM_CM3_RESET_TYPE_NORMAL)
T3204 002:978.991 - 0.005ms returns JLINKARM_CM3_RESET_TYPE_NORMAL
T3204 002:978.995 JLINK_Reset()
T3204 002:979.236   Memory map 'before startup completion point' is active
T3204 002:979.246   JLINK_GetResetTypeDesc
T3204 002:979.250   - 0.003ms 
T3204 002:979.282   Reset type: NORMAL (https://wiki.segger.com/J-Link_Reset_Strategies)
T3204 002:979.290   CPU_WriteMem(4 bytes @ 0xE000EDF0)
T3204 002:980.029   CPU_WriteMem(4 bytes @ 0xE000EDFC)
T3204 002:980.710   Reset: Halt core after reset via DEMCR.VC_CORERESET.
T3204 002:981.795   Reset: Reset device via AIRCR.SYSRESETREQ.
T3204 002:981.802   CPU_WriteMem(4 bytes @ 0xE000ED0C)
T3204 003:036.536   CPU_ReadMem(4 bytes @ 0xE000EDF0)
T3204 003:037.270   CPU_ReadMem(4 bytes @ 0xE000EDF0)
T3204 003:038.735   CPU_WriteMem(4 bytes @ 0xE000EDFC)
T3204 003:045.791   CPU_ReadMem(4 bytes @ 0xE000EDF0)
T3204 003:050.080   CPU_WriteMem(4 bytes @ 0xE0002000)
T3204 003:050.734   CPU_ReadMem(4 bytes @ 0xE000EDFC)
T3204 003:051.360   CPU_ReadMem(4 bytes @ 0xE0001000)
T3204 003:052.001 - 73.005ms 
T3204 003:052.051 JLINK_WriteU32(0xE000EDFC, 0x01000000)
T3204 003:052.055   Debug reg: DEMCR
T3204 003:052.066   CPU_WriteMem(4 bytes @ 0xE000EDFC)
T3204 003:053.191 - 1.139ms returns 0 (0x00000000)
T3204 003:053.272 JLINK_HasError()
T3204 003:053.278 JLINK_ReadReg(R15 (PC))
T3204 003:053.284 - 0.005ms returns 0x0800024C
T3204 003:053.288 JLINK_ReadReg(XPSR)
T3204 003:053.292 - 0.003ms returns 0x01000000
T3204 003:058.105 JLINK_HasError()
T3204 003:058.119 JLINK_ReadReg(R0)
T3204 003:058.125 - 0.005ms returns 0x00000000
T3204 003:058.129 JLINK_ReadReg(R1)
T3204 003:058.132 - 0.003ms returns 0x00000000
T3204 003:058.136 JLINK_ReadReg(R2)
T3204 003:058.140 - 0.003ms returns 0x00000000
T3204 003:058.144 JLINK_ReadReg(R3)
T3204 003:058.147 - 0.003ms returns 0x00000000
T3204 003:058.151 JLINK_ReadReg(R4)
T3204 003:058.154 - 0.003ms returns 0x00000000
T3204 003:058.158 JLINK_ReadReg(R5)
T3204 003:058.162 - 0.003ms returns 0x00000000
T3204 003:058.166 JLINK_ReadReg(R6)
T3204 003:058.169 - 0.003ms returns 0x00000000
T3204 003:058.173 JLINK_ReadReg(R7)
T3204 003:058.176 - 0.003ms returns 0x00000000
T3204 003:058.180 JLINK_ReadReg(R8)
T3204 003:058.184 - 0.003ms returns 0x00000000
T3204 003:058.187 JLINK_ReadReg(R9)
T3204 003:058.191 - 0.003ms returns 0x00000000
T3204 003:058.195 JLINK_ReadReg(R10)
T3204 003:058.198 - 0.003ms returns 0x00000000
T3204 003:058.202 JLINK_ReadReg(R11)
T3204 003:058.206 - 0.003ms returns 0x00000000
T3204 003:058.209 JLINK_ReadReg(R12)
T3204 003:058.213 - 0.003ms returns 0x00000000
T3204 003:058.217 JLINK_ReadReg(R13 (SP))
T3204 003:058.221 - 0.004ms returns 0x20013148
T3204 003:058.225 JLINK_ReadReg(R14)
T3204 003:058.228 - 0.003ms returns 0xFFFFFFFF
T3204 003:058.232 JLINK_ReadReg(R15 (PC))
T3204 003:058.236 - 0.003ms returns 0x0800024C
T3204 003:058.240 JLINK_ReadReg(XPSR)
T3204 003:058.243 - 0.003ms returns 0x01000000
T3204 003:058.247 JLINK_ReadReg(MSP)
T3204 003:058.250 - 0.003ms returns 0x20013148
T3204 003:058.254 JLINK_ReadReg(PSP)
T3204 003:058.258 - 0.003ms returns 0x00000000
T3204 003:058.262 JLINK_ReadReg(CFBP)
T3204 003:058.265 - 0.003ms returns 0x00000000
T3204 003:058.269 JLINK_ReadReg(FPSCR)
T3204 003:063.131 - 4.861ms returns 0x00000000
T3204 003:063.159 JLINK_ReadReg(FPS0)
T3204 003:063.164 - 0.004ms returns 0x00000000
T3204 003:063.168 JLINK_ReadReg(FPS1)
T3204 003:063.171 - 0.003ms returns 0x00000000
T3204 003:063.178 JLINK_ReadReg(FPS2)
T3204 003:063.189 - 0.010ms returns 0x00000000
T3204 003:063.194 JLINK_ReadReg(FPS3)
T3204 003:063.198 - 0.003ms returns 0x00000000
T3204 003:063.202 JLINK_ReadReg(FPS4)
T3204 003:063.205 - 0.003ms returns 0x00000000
T3204 003:063.209 JLINK_ReadReg(FPS5)
T3204 003:063.212 - 0.003ms returns 0x00000000
T3204 003:063.216 JLINK_ReadReg(FPS6)
T3204 003:063.220 - 0.003ms returns 0x00000000
T3204 003:063.223 JLINK_ReadReg(FPS7)
T3204 003:063.227 - 0.003ms returns 0x00000000
T3204 003:063.231 JLINK_ReadReg(FPS8)
T3204 003:063.234 - 0.003ms returns 0x00000000
T3204 003:063.238 JLINK_ReadReg(FPS9)
T3204 003:063.242 - 0.003ms returns 0x00000000
T3204 003:063.245 JLINK_ReadReg(FPS10)
T3204 003:063.249 - 0.003ms returns 0x00000000
T3204 003:063.253 JLINK_ReadReg(FPS11)
T3204 003:063.256 - 0.003ms returns 0x00000000
T3204 003:063.260 JLINK_ReadReg(FPS12)
T3204 003:063.264 - 0.003ms returns 0x00000000
T3204 003:063.268 JLINK_ReadReg(FPS13)
T3204 003:063.271 - 0.003ms returns 0x00000000
T3204 003:063.275 JLINK_ReadReg(FPS14)
T3204 003:063.278 - 0.003ms returns 0x00000000
T3204 003:063.282 JLINK_ReadReg(FPS15)
T3204 003:063.286 - 0.003ms returns 0x00000000
T3204 003:063.289 JLINK_ReadReg(FPS16)
T3204 003:063.293 - 0.003ms returns 0x00000000
T3204 003:063.297 JLINK_ReadReg(FPS17)
T3204 003:063.300 - 0.003ms returns 0x00000000
T3204 003:063.304 JLINK_ReadReg(FPS18)
T3204 003:063.307 - 0.003ms returns 0x00000000
T3204 003:063.311 JLINK_ReadReg(FPS19)
T3204 003:063.315 - 0.003ms returns 0x00000000
T3204 003:063.318 JLINK_ReadReg(FPS20)
T3204 003:063.322 - 0.003ms returns 0x00000000
T3204 003:063.326 JLINK_ReadReg(FPS21)
T3204 003:063.329 - 0.003ms returns 0x00000000
T3204 003:063.333 JLINK_ReadReg(FPS22)
T3204 003:063.336 - 0.003ms returns 0x00000000
T3204 003:063.340 JLINK_ReadReg(FPS23)
T3204 003:063.344 - 0.003ms returns 0x00000000
T3204 003:063.348 JLINK_ReadReg(FPS24)
T3204 003:063.351 - 0.003ms returns 0x00000000
T3204 003:063.355 JLINK_ReadReg(FPS25)
T3204 003:063.358 - 0.003ms returns 0x00000000
T3204 003:063.362 JLINK_ReadReg(FPS26)
T3204 003:063.366 - 0.003ms returns 0x00000000
T3204 003:063.370 JLINK_ReadReg(FPS27)
T3204 003:063.373 - 0.003ms returns 0x00000000
T3204 003:063.377 JLINK_ReadReg(FPS28)
T3204 003:063.380 - 0.003ms returns 0x00000000
T3204 003:063.384 JLINK_ReadReg(FPS29)
T3204 003:063.388 - 0.003ms returns 0x00000000
T3204 003:063.391 JLINK_ReadReg(FPS30)
T3204 003:063.395 - 0.003ms returns 0x00000000
T3204 003:063.399 JLINK_ReadReg(FPS31)
T3204 003:063.402 - 0.003ms returns 0x00000000
T3204 003:063.406 JLINK_HasError()
T3204 003:063.411 JLINK_ReadMemU32(0xE0001004, 0x1 Items)
T3204 003:063.419   Data:  00 00 00 00
T3204 003:063.424   Debug reg: DWT_CYCCNT
T3204 003:063.430 - 0.018ms returns 1 (0x1)
T3204 003:063.672 JLINK_ReadMemEx(0x08000188, 0x3C Bytes, Flags = 0x02000000)
T3204 003:063.682   CPU_ReadMem(128 bytes @ 0x08000180)
T3204 003:065.146    -- Updating C cache (128 bytes @ 0x08000180)
T3204 003:065.160    -- Read from C cache (60 bytes @ 0x08000188)
T3204 003:065.166   Data:  DF F8 0C D0 00 F0 70 F8 00 48 00 47 3D 04 00 08 ...
T3204 003:065.171 - 1.498ms returns 60 (0x3C)
T3204 003:065.204 JLINK_ReadMemEx(0x080001C4, 0x3C Bytes, Flags = 0x02000000)
T3204 003:065.208    -- Read from C cache (60 bytes @ 0x080001C4)
T3204 003:065.213   Data:  6F 8F 00 DF 00 BF 00 BF 08 ED 00 E0 1D 4B 19 68 ...
T3204 003:065.218 - 0.014ms returns 60 (0x3C)
T3204 003:065.225 JLINK_ReadMemEx(0x08000200, 0x3C Bytes, Flags = 0x02000000)
T3204 003:065.229   CPU_ReadMem(64 bytes @ 0x08000200)
T3204 003:066.297    -- Updating C cache (64 bytes @ 0x08000200)
T3204 003:066.303    -- Read from C cache (60 bytes @ 0x08000200)
T3204 003:066.308   Data:  08 BF 20 ED 10 8A 20 E9 F0 4F 10 60 08 B4 4F F0 ...
T3204 003:066.313 - 1.088ms returns 60 (0x3C)
T3204 003:066.342 JLINK_ReadMemEx(0x0800023E, 0x2 Bytes, Flags = 0x02000000)
T3204 003:066.347    -- Read from C cache (2 bytes @ 0x0800023E)
T3204 003:066.352   Data:  80 F3
T3204 003:066.356 - 0.014ms returns 2 (0x2)
T3204 003:066.362 JLINK_ReadMemEx(0x08000240, 0x3C Bytes, Flags = 0x02000000)
T3204 003:066.367   CPU_ReadMem(64 bytes @ 0x08000240)
T3204 003:067.428    -- Updating C cache (64 bytes @ 0x08000240)
T3204 003:067.436    -- Read from C cache (60 bytes @ 0x08000240)
T3204 003:067.441   Data:  09 88 BF F3 6F 8F 70 47 14 00 00 20 06 48 80 47 ...
T3204 003:067.446 - 1.083ms returns 60 (0x3C)
T3204 003:096.698 JLINK_ReadMemEx(0x20000074, 0x4 Bytes, Flags = 0x02000000)
T3204 003:096.732   CPU_ReadMem(64 bytes @ 0x20000040)
T3204 003:098.201    -- Updating C cache (64 bytes @ 0x20000040)
T3204 003:098.212    -- Read from C cache (4 bytes @ 0x20000074)
T3204 003:098.218   Data:  00 00 00 00
T3204 003:098.224 - 1.526ms returns 4 (0x4)
T3204 003:098.268 JLINK_ReadMemEx(0x20000078, 0x4 Bytes, Flags = 0x02000000)
T3204 003:098.274    -- Read from C cache (4 bytes @ 0x20000078)
T3204 003:098.279   Data:  00 00 00 00
T3204 003:098.284 - 0.016ms returns 4 (0x4)
T3204 003:116.507 JLINK_WriteU32(0xE0001008, 0x00000000)
T3204 003:116.529   Debug reg: DWT_CPICNT
T3204 003:116.549 - 0.042ms returns 0 (0x00000000)
T3204 003:116.554 JLINK_WriteU32(0xE000100C, 0x00000000)
T3204 003:116.558   Debug reg: DWT_EXCCNT
T3204 003:116.564 - 0.009ms returns 0 (0x00000000)
T3204 003:116.568 JLINK_WriteU32(0xE0001010, 0x00000000)
T3204 003:116.571   Debug reg: DWT_SLEEPCNT
T3204 003:116.577 - 0.009ms returns 0 (0x00000000)
T3204 003:116.581 JLINK_WriteU32(0xE0001014, 0x00000000)
T3204 003:116.585   Debug reg: DWT_LSUCNT
T3204 003:116.590 - 0.009ms returns 0 (0x00000000)
T3204 003:116.594 JLINK_WriteU32(0xE0001018, 0x00000000)
T3204 003:116.598   Debug reg: DWT_FOLDCNT
T3204 003:116.604 - 0.009ms returns 0 (0x00000000)
T0B5C 004:478.795 JLINK_ReadMemEx(0x0800024C, 0x2 Bytes, Flags = 0x02000000)
T0B5C 004:478.821    -- Read from C cache (2 bytes @ 0x0800024C)
T0B5C 004:478.827   Data:  06 48
T0B5C 004:478.833 - 0.038ms returns 2 (0x2)
T0B5C 004:478.837 JLINK_HasError()
T0B5C 004:478.843 JLINK_HasError()
T0B5C 004:478.847 JLINK_ReadMemU32(0xE0001004, 0x1 Items)
T0B5C 004:478.857   Data:  00 00 00 00
T0B5C 004:478.864   Debug reg: DWT_CYCCNT
T0B5C 004:478.869 - 0.021ms returns 1 (0x1)
T0B5C 004:478.873 JLINK_WriteU32(0xE0001004, 0x000003FF)
T0B5C 004:478.876   Debug reg: DWT_CYCCNT
T0B5C 004:478.886 - 0.013ms returns 0 (0x00000000)
T0B5C 004:478.890 JLINK_WriteU32(0xE0001000, 0x00410A1F)
T0B5C 004:478.894   Debug reg: DWT_CTRL
T0B5C 004:478.901   CPU_WriteMem(4 bytes @ 0xE0001000)
T0B5C 004:479.712 - 0.820ms returns 0 (0x00000000)
T0B5C 004:479.773 JLINK_WriteU32(0xE0000E80, 0x0001000F)
T0B5C 004:479.779   Debug reg: ITM_TCR
T0B5C 004:479.789 - 0.015ms returns 0 (0x00000000)
T0B5C 004:479.794 JLINK_SWO_Control(JLINKARM_SWO_CMD_GET_NUM_BYTES, ...)
T0B5C 004:479.942 - 0.147ms returns 0x00
T0B5C 004:479.951 JLINK_Go()
T0B5C 004:480.797   CPU_ReadMem(4 bytes @ 0xE0001000)
T0B5C 004:481.532   CPU_WriteMem(4 bytes @ 0xE0000E80)
T0B5C 004:481.540   CPU_WriteMem(4 bytes @ 0xE0001008)
T0B5C 004:481.545   CPU_WriteMem(4 bytes @ 0xE000100C)
T0B5C 004:481.550   CPU_WriteMem(4 bytes @ 0xE0001010)
T0B5C 004:481.555   CPU_WriteMem(4 bytes @ 0xE0001014)
T0B5C 004:481.559   CPU_WriteMem(4 bytes @ 0xE0001018)
T0B5C 004:481.568   CPU_WriteMem(4 bytes @ 0xE0002008)
T0B5C 004:481.573   CPU_WriteMem(4 bytes @ 0xE000200C)
T0B5C 004:481.578   CPU_WriteMem(4 bytes @ 0xE0002010)
T0B5C 004:481.583   CPU_WriteMem(4 bytes @ 0xE0002014)
T0B5C 004:481.588   CPU_WriteMem(4 bytes @ 0xE0002018)
T0B5C 004:481.594   CPU_WriteMem(4 bytes @ 0xE000201C)
T0B5C 004:484.531   CPU_WriteMem(4 bytes @ 0xE0001004)
T0B5C 004:486.162   Memory map 'after startup completion point' is active
T0B5C 004:486.171 - 6.219ms 
T0B5C 004:486.202 JLINK_WriteU32(0xE0001000, 0x00010A1F)
T0B5C 004:486.207   Debug reg: DWT_CTRL
T0B5C 004:486.217   CPU is running
T0B5C 004:486.225   CPU_WriteMem(4 bytes @ 0xE0001000)
T0B5C 004:486.973 - 0.769ms returns 0 (0x00000000)
T0B5C 004:587.352 JLINK_SWO_Read(..., Offset = 0x00, NumBytes = 0x400000)
T0B5C 004:587.378   Data:  00 00 00 00 00 00 00 00 00 00 00 00 00 00 00 00 ...
T0B5C 004:587.387 - 0.035ms returns NumBytesRead = 0x400000
T0B5C 004:587.407 JLINK_SWO_Control(JLINKARM_SWO_CMD_FLUSH, ...)
T0B5C 004:587.625 - 0.217ms returns 0x00
T0B5C 004:596.052 JLINK_HasError()
T0B5C 004:596.067 JLINK_IsHalted()
T0B5C 004:596.931 - 0.860ms returns FALSE
T0B5C 004:697.956 JLINK_SWO_Read(..., Offset = 0x00, NumBytes = 0x400000)
T0B5C 004:697.991   Data:  00 00 00 00 00 00 00 00 00 00 00 00 00 00 00 00 ...
T0B5C 004:697.997 - 0.041ms returns NumBytesRead = 0x400000
T0B5C 004:698.002 JLINK_SWO_Control(JLINKARM_SWO_CMD_FLUSH, ...)
T0B5C 004:698.151 - 0.149ms returns 0x00
T0B5C 004:706.460 JLINK_HasError()
T0B5C 004:706.472 JLINK_IsHalted()
T0B5C 004:707.362 - 0.888ms returns FALSE
T0B5C 004:807.838 JLINK_SWO_Read(..., Offset = 0x00, NumBytes = 0x400000)
T0B5C 004:807.863   Data:  00 00 00 00 00 00 00 00 00 00 00 00 00 00 00 00 ...
T0B5C 004:807.869 - 0.032ms returns NumBytesRead = 0x400000
T0B5C 004:807.875 JLINK_SWO_Control(JLINKARM_SWO_CMD_FLUSH, ...)
T0B5C 004:808.173 - 0.298ms returns 0x00
T0B5C 004:816.487 JLINK_HasError()
T0B5C 004:816.500 JLINK_IsHalted()
T0B5C 004:817.427 - 0.926ms returns FALSE
T0B5C 004:918.568 JLINK_SWO_Read(..., Offset = 0x00, NumBytes = 0x400000)
T0B5C 004:918.600   Data:  00 00 00 00 00 00 00 00 00 00 00 00 00 00 00 00 ...
T0B5C 004:918.607 - 0.042ms returns NumBytesRead = 0x400000
T0B5C 004:918.612 JLINK_SWO_Control(JLINKARM_SWO_CMD_FLUSH, ...)
T0B5C 004:918.824 - 0.211ms returns 0x00
T0B5C 004:927.048 JLINK_HasError()
T0B5C 004:927.055 JLINK_IsHalted()
T0B5C 004:927.900 - 0.842ms returns FALSE
T0B5C 005:028.192 JLINK_SWO_Read(..., Offset = 0x00, NumBytes = 0x400000)
T0B5C 005:028.221   Data:  00 00 00 00 00 00 00 00 00 00 00 00 00 00 00 00 ...
